T5150 1551:952 SEGGER J-Link V6.32i Log File (0000ms, 13369ms total)
T5150 1551:952 DLL Compiled: Jul 24 2018 15:19:55 (0000ms, 13369ms total)
T5150 1551:952 Logging started @ 2020-04-27 20:20 (0000ms, 13369ms total)
T5150 1551:952 JLINK_SetWarnOutHandler(...) (0000ms, 13369ms total)
T5150 1551:952 JLINK_OpenEx(...)
Firmware: J-Link V9 compiled May 17 2019 09:50:41
Hardware: V9.60
S/N: 69650140
Feature(s): RDI, GDB, FlashDL, FlashBP, JFlash
TELNET listener socket opened on port 19021Device "STM32F042F6" selected.WEBSRV 
Starting webserver (0026ms, 13395ms total)
T5150 1551:952 WEBSRV Webserver running on local port 19080 (0027ms, 13396ms total)
T5150 1551:952   returns O.K. (0027ms, 13396ms total)
T5150 1551:979 JLINK_GetEmuCaps()  returns 0xB9FF7BBF (0000ms, 13396ms total)
T5150 1551:980 JLINK_TIF_GetAvailable(...) (0000ms, 13396ms total)
T5150 1551:980 JLINK_SetErrorOutHandler(...) (0000ms, 13396ms total)
T5150 1551:980 JLINK_ExecCommand("ProjectFile = "D:\github_project\custom_usbdongle\custom_usbdongle\MDK-ARM\JLinkSettings.ini"", ...). Device "STM32F042F6" selected.  returns 0x00 (0002ms, 13398ms total)
T5150 1551:982 JLINK_ExecCommand("Device = STM32F042F6Px", ...). Device "STM32F042F6" selected.  returns 0x00 (0001ms, 13399ms total)
T5150 1551:983 JLINK_ExecCommand("DisableConnectionTimeout", ...).   returns 0x01 (0000ms, 13399ms total)
T5150 1551:983 JLINK_GetHardwareVersion()  returns 0x17700 (0000ms, 13399ms total)
T5150 1551:983 JLINK_GetDLLVersion()  returns 63209 (0000ms, 13399ms total)
T5150 1551:983 JLINK_GetFirmwareString(...) (0000ms, 13399ms total)
T5150 1551:984 JLINK_GetDLLVersion()  returns 63209 (0000ms, 13399ms total)
T5150 1551:984 JLINK_GetCompileDateTime() (0000ms, 13399ms total)
T5150 1551:984 JLINK_GetFirmwareString(...) (0000ms, 13399ms total)
T5150 1551:984 JLINK_GetHardwareVersion()  returns 0x17700 (0000ms, 13399ms total)
T5150 1551:984 JLINK_TIF_Select(JLINKARM_TIF_SWD)  returns 0x00 (0000ms, 13399ms total)
T5150 1551:984 JLINK_SetSpeed(5000) (0000ms, 13399ms total)
T5150 1551:984 JLINK_GetId() >0x10B TIF>Found SW-DP with ID 0x0BB11477 >0x0D TIF> >0x28 TIF> >0x0D TIF> >0x28 TIF> >0x0D TIF> >0x28 TIF> >0x0D TIF> >0x28 TIF> >0x0D TIF> >0x21 TIF> >0x0D TIF> >0x28 TIF> >0x0D TIF> >0x28 TIF> >0x0D TIF> >0x28 TIF> >0x0D TIF> >0x21 TIF> >0x0D TIF> >0x21 TIF> >0x0D TIF> >0x28 TIF> >0x0D TIF> >0x21 TIF> >0x0D TIF> >0x21 TIF> >0x0D TIF> >0x28 TIF> >0x0D TIF> >0x21 TIF> >0x0D TIF> >0x21 TIF> >0x0D TIF> >0x28 TIF> >0x0D TIF> >0x28 TIF> >0x0D TIF> >0x28 TIF> >0x0D TIF>
 >0x21 TIF> >0x0D TIF> >0x21 TIF> >0x0D TIF> >0x28 TIF> >0x0D TIF> >0x28 TIF> >0x0D TIF> >0x28 TIF> >0x0D TIF> >0x21 TIF> >0x0D TIF> >0x21 TIF> >0x0D TIF> >0x28 TIF> >0x0D TIF> >0x21 TIF> >0x0D TIF> >0x21 TIF> >0x0D TIF> >0x28 TIF> >0x0D TIF> >0x21 TIF> >0x0D TIF> >0x21 TIF> >0x0D TIF> >0x28 TIF> >0x0D TIF> >0x21 TIF> >0x0D TIF> >0x21 TIF> >0x0D TIF> >0x28 TIF> >0x0D TIF> >0x21 TIF> >0x0D TIF> >0x21 TIF> >0x0D TIF> >0x28 TIF> >0x0D TIF> >0x21 TIF> >0x0D TIF> >0x21 TIF> >0x10B TIF>
Found SW-DP with ID 0x0BB11477 >0x0D TIF> >0x28 TIF> >0x0D TIF> >0x28 TIF> >0x0D TIF> >0x28 TIF> >0x0D TIF> >0x28 TIF> >0x0D TIF> >0x21 TIF> >0x0D TIF> >0x28 TIF>Scanning AP map to find all available APs >0x0D TIF> >0x28 TIF> >0x0D TIF> >0x21 TIF> >0x0D TIF> >0x21 TIF> >0x0D TIF> >0x28 TIF> >0x0D TIF> >0x21 TIF> >0x0D TIF> >0x21 TIF>AP[1]: Stopped AP scan as end of AP map has been reachedAP[0]: AHB-AP (IDR: 0x04770021)Iterating through AP map to find AHB-AP to use >0x42 TIF> >0x28 TIF> >0x0D TIF>
 >0x28 TIF> >0x0D TIF> >0x21 TIF> >0x0D TIF> >0x21 TIF> >0x42 TIF> >0x28 TIF> >0x0D TIF> >0x28 TIF> >0x0D TIF> >0x28 TIF> >0x0D TIF> >0x21 TIF> >0x0D TIF> >0x21 TIF>AP[0]: Core foundAP[0]: AHB-AP ROM base: 0xE00FF000 >0x0D TIF> >0x28 TIF> >0x0D TIF> >0x28 TIF> >0x0D TIF> >0x28 TIF> >0x0D TIF> >0x21 TIF> >0x0D TIF> >0x21 TIF>CPUID register: 0x410CC200. Implementer code: 0x41 (ARM)Found Cortex-M0 r0p0, Little endian. -- Max. mem block: 0x00010DF8 -- CPU_ReadMem(4 bytes @ 0xE000EDF0)
 -- CPU_ReadMem(4 bytes @ 0xE0002000)FPUnit: 4 code (BP) slots and 0 literal slots -- CPU_ReadMem(4 bytes @ 0xE000EDFC) -- CPU_ReadMem(4 bytes @ 0xE0001000) -- CPU_WriteMem(4 bytes @ 0xE0001000)CoreSight components:ROMTbl[0] @ E00FF000 -- CPU_ReadMem(16 bytes @ 0xE00FF000) -- CPU_ReadMem(16 bytes @ 0xE000EFF0) -- CPU_ReadMem(16 bytes @ 0xE000EFE0)ROMTbl[0][0]: E000E000, CID: B105E00D, PID: 000BB008 SCS -- CPU_ReadMem(16 bytes @ 0xE0001FF0) -- CPU_ReadMem(16 bytes @ 0xE0001FE0)
ROMTbl[0][1]: E0001000, CID: B105E00D, PID: 000BB00A DWT -- CPU_ReadMem(16 bytes @ 0xE0002FF0) -- CPU_ReadMem(16 bytes @ 0xE0002FE0)ROMTbl[0][2]: E0002000, CID: B105E00D, PID: 000BB00B FPB >0x0D TIF> >0x21 TIF>  returns 0x0BB11477 (0128ms, 13527ms total)
T5150 1552:112 JLINK_GetDLLVersion()  returns 63209 (0000ms, 13527ms total)
T5150 1552:112 JLINK_CORE_GetFound()  returns 0x60000FF (0000ms, 13527ms total)
T5150 1552:112 JLINK_GetDebugInfo(0x100 = JLINKARM_ROM_TABLE_ADDR_INDEX) -- Value=0xE00FF000  returns 0x00 (0000ms, 13527ms total)
T5150 1552:112 JLINK_GetDebugInfo(0x100 = JLINKARM_ROM_TABLE_ADDR_INDEX) -- Value=0xE00FF000  returns 0x00 (0000ms, 13527ms total)
T5150 1552:112 JLINK_GetDebugInfo(0x101 = JLINKARM_DEBUG_INFO_ETM_ADDR_INDEX) -- Value=0x00000000  returns 0x00 (0000ms, 13527ms total)
T5150 1552:112 JLINK_ReadMemEx(0xE0041FF0, 0x0010 Bytes, ..., Flags = 0x02000004) -- CPU_ReadMem(16 bytes @ 0xE0041FF0) - Data: 00 00 00 00 00 00 00 00 00 00 00 00 00 00 00 00  returns 0x10 (0000ms, 13527ms total)
T5150 1552:112 JLINK_GetDebugInfo(0x102 = JLINKARM_DEBUG_INFO_MTB_ADDR_INDEX) -- Value=0x00000000  returns 0x00 (0000ms, 13527ms total)
T5150 1552:112 JLINK_GetDebugInfo(0x103 = JLINKARM_DEBUG_INFO_TPIU_ADDR_INDEX) -- Value=0x00000000  returns 0x00 (0000ms, 13527ms total)
T5150 1552:112 JLINK_ReadMemEx(0xE0040FF0, 0x0010 Bytes, ..., Flags = 0x02000004) -- CPU_ReadMem(16 bytes @ 0xE0040FF0) - Data: 00 00 00 00 00 00 00 00 00 00 00 00 00 00 00 00  returns 0x10 (0001ms, 13528ms total)
T5150 1552:113 JLINK_GetDebugInfo(0x104 = JLINKARM_DEBUG_INFO_ITM_ADDR_INDEX) -- Value=0xE0000000  returns 0x00 (0000ms, 13528ms total)
T5150 1552:113 JLINK_GetDebugInfo(0x105 = JLINKARM_DEBUG_INFO_DWT_ADDR_INDEX) -- Value=0xE0001000  returns 0x00 (0000ms, 13528ms total)
T5150 1552:113 JLINK_GetDebugInfo(0x106 = JLINKARM_DEBUG_INFO_FPB_ADDR_INDEX) -- Value=0xE0002000  returns 0x00 (0000ms, 13528ms total)
T5150 1552:113 JLINK_GetDebugInfo(0x107 = JLINKARM_DEBUG_INFO_NVIC_ADDR_INDEX) -- Value=0xE000E000  returns 0x00 (0000ms, 13528ms total)
T5150 1552:113 JLINK_GetDebugInfo(0x10C = JLINKARM_DEBUG_INFO_DBG_ADDR_INDEX) -- Value=0xE000EDF0  returns 0x00 (0000ms, 13528ms total)
T5150 1552:113 JLINK_GetDebugInfo(0x01 = Unknown) -- Value=0x00000000  returns 0x00 (0000ms, 13528ms total)
T5150 1552:113 JLINK_ReadMemU32(0xE000ED00, 0x0001 Items, ...) -- CPU_ReadMem(4 bytes @ 0xE000ED00) - Data: 00 C2 0C 41  returns 0x01 (0000ms, 13528ms total)
T5150 1552:113 JLINK_GetDebugInfo(0x10F = JLINKARM_DEBUG_INFO_HAS_CORTEX_M_SECURITY_EXT_INDEX) -- Value=0x00000000  returns 0x00 (0000ms, 13528ms total)
T5150 1552:113 JLINK_SetResetType(JLINKARM_CM3_RESET_TYPE_NORMAL)  returns JLINKARM_CM3_RESET_TYPE_NORMAL (0000ms, 13528ms total)
T5150 1552:113 JLINK_Reset() -- CPU is running -- CPU_WriteMem(4 bytes @ 0xE000EDF0) -- CPU is running -- CPU_WriteMem(4 bytes @ 0xE000EDFC)Reset: Halt core after reset via DEMCR.VC_CORERESET. >0x35 TIF>Reset: Reset device via AIRCR.SYSRESETREQ. -- CPU is running -- CPU_WriteMem(4 bytes @ 0xE000ED0C) >0x0D TIF> >0x28 TIF> -- CPU_ReadMem(4 bytes @ 0xE000EDF0) -- CPU_ReadMem(4 bytes @ 0xE000EDF0) -- CPU is running -- CPU_WriteMem(4 bytes @ 0xE000EDF0) -- CPU is running -- CPU_WriteMem(4 bytes @ 0xE000EDFC)
 -- CPU_ReadMem(4 bytes @ 0xE000EDF0) -- CPU_WriteMem(4 bytes @ 0xE0002000) -- CPU_ReadMem(4 bytes @ 0xE000EDFC) -- CPU_ReadMem(4 bytes @ 0xE0001000) -- CPU_WriteMem(4 bytes @ 0xE0001000) (0064ms, 13592ms total)
T5150 1552:177 JLINK_ReadReg(R15 (PC))  returns 0x080000D4 (0000ms, 13592ms total)
T5150 1552:177 JLINK_ReadReg(XPSR)  returns 0xC1000000 (0000ms, 13592ms total)
T5150 1552:177 JLINK_Halt()  returns 0x00 (0000ms, 13592ms total)
T5150 1552:177 JLINK_ReadMemU32(0xE000EDF0, 0x0001 Items, ...) -- CPU_ReadMem(4 bytes @ 0xE000EDF0) - Data: 03 00 03 00  returns 0x01 (0000ms, 13592ms total)
T5150 1552:177 JLINK_WriteU32(0xE000EDF0, 0xA05F0003) -- CPU_WriteMem(4 bytes @ 0xE000EDF0)  returns 0x00 (0000ms, 13592ms total)
T5150 1552:177 JLINK_WriteU32(0xE000EDFC, 0x01000000) -- CPU_WriteMem(4 bytes @ 0xE000EDFC)  returns 0x00 (0001ms, 13593ms total)
T5150 1552:178 JLINK_GetHWStatus(...)  returns 0x00 (0000ms, 13593ms total)
T5150 1552:178 JLINK_GetNumBPUnits(Type = 0xFFFFFF00)  returns 0x04 (0000ms, 13593ms total)
T5150 1552:178 JLINK_GetNumBPUnits(Type = 0xF0)  returns 0x2000 (0000ms, 13593ms total)
T5150 1552:178 JLINK_GetNumWPUnits()  returns 0x02 (0000ms, 13593ms total)
T5150 1552:178 JLINK_GetSpeed()  returns 0xFA0 (0000ms, 13593ms total)
T5150 1552:178 JLINK_ReadMemU32(0xE000E004, 0x0001 Items, ...) -- CPU_ReadMem(4 bytes @ 0xE000E004) - Data: 00 00 00 00  returns 0x01 (0000ms, 13593ms total)
T5150 1552:178 JLINK_ReadReg(R15 (PC))  returns 0x080000D4 (0000ms, 13593ms total)
T5150 1552:178 JLINK_ReadReg(XPSR)  returns 0xC1000000 (0000ms, 13593ms total)
T5150 1552:291 JLINK_SetResetType(JLINKARM_CM3_RESET_TYPE_NORMAL)  returns JLINKARM_CM3_RESET_TYPE_NORMAL (0000ms, 13593ms total)
T5150 1552:291 JLINK_Reset() -- CPU_WriteMem(4 bytes @ 0xE000EDF0) -- CPU_WriteMem(4 bytes @ 0xE000EDFC)Reset: Halt core after reset via DEMCR.VC_CORERESET. >0x35 TIF>Reset: Reset device via AIRCR.SYSRESETREQ. -- CPU_WriteMem(4 bytes @ 0xE000ED0C) >0x0D TIF> >0x28 TIF> -- CPU_ReadMem(4 bytes @ 0xE000EDF0) -- CPU_ReadMem(4 bytes @ 0xE000EDF0) -- CPU_WriteMem(4 bytes @ 0xE000EDF0) -- CPU_WriteMem(4 bytes @ 0xE000EDFC) -- CPU_ReadMem(4 bytes @ 0xE000EDF0) -- CPU_WriteMem(4 bytes @ 0xE0002000)
 -- CPU_ReadMem(4 bytes @ 0xE000EDFC) -- CPU_ReadMem(4 bytes @ 0xE0001000) -- CPU_WriteMem(4 bytes @ 0xE0001000) (0064ms, 13657ms total)
T5150 1552:355 JLINK_ReadReg(R15 (PC))  returns 0x080000D4 (0000ms, 13657ms total)
T5150 1552:355 JLINK_ReadReg(XPSR)  returns 0xC1000000 (0000ms, 13657ms total)
T5150 1552:770 JLINK_ReadMemEx(0x40020000, 0x0004 Bytes, ..., Flags = 0x02000004) -- CPU_ReadMem(4 bytes @ 0x40020000) - Data: 00 00 00 00  returns 0x04 (0001ms, 13658ms total)
T5150 1552:771 JLINK_ReadMemEx(0x40020008, 0x000C Bytes, ..., Flags = 0x02000004) -- CPU_ReadMem(12 bytes @ 0x40020008) - Data: 00 00 00 00 00 00 00 00 00 00 00 00  returns 0x0C (0000ms, 13658ms total)
T5150 1552:771 JLINK_ReadMemEx(0x40020014, 0x0004 Bytes, ..., Flags = 0x02000004) -- CPU_ReadMem(4 bytes @ 0x40020014) - Data: 00 00 00 00  returns 0x04 (0000ms, 13658ms total)
T5150 1552:771 JLINK_ReadMemEx(0x4002001C, 0x000C Bytes, ..., Flags = 0x02000004) -- CPU_ReadMem(12 bytes @ 0x4002001C) - Data: 00 00 00 00 00 00 00 00 00 00 00 00  returns 0x0C (0000ms, 13658ms total)
T5150 1552:771 JLINK_ReadMemEx(0x40020028, 0x0004 Bytes, ..., Flags = 0x02000004) -- CPU_ReadMem(4 bytes @ 0x40020028) - Data: 00 00 00 00  returns 0x04 (0001ms, 13659ms total)
T5150 1552:772 JLINK_ReadMemEx(0x40020030, 0x000C Bytes, ..., Flags = 0x02000004) -- CPU_ReadMem(12 bytes @ 0x40020030) - Data: 00 00 00 00 00 00 00 00 00 00 00 00  returns 0x0C (0000ms, 13659ms total)
T5150 1552:772 JLINK_ReadMemEx(0x4002003C, 0x0004 Bytes, ..., Flags = 0x02000004) -- CPU_ReadMem(4 bytes @ 0x4002003C) - Data: 00 00 00 00  returns 0x04 (0000ms, 13659ms total)
T5150 1552:772 JLINK_ReadMemEx(0x40020044, 0x000C Bytes, ..., Flags = 0x02000004) -- CPU_ReadMem(12 bytes @ 0x40020044) - Data: 00 00 00 00 00 00 00 00 00 00 00 00  returns 0x0C (0001ms, 13660ms total)
T5150 1552:773 JLINK_ReadMemEx(0x40020050, 0x0004 Bytes, ..., Flags = 0x02000004) -- CPU_ReadMem(4 bytes @ 0x40020050) - Data: 00 00 00 00  returns 0x04 (0000ms, 13660ms total)
T5150 1552:773 JLINK_ReadMemEx(0x40020058, 0x000C Bytes, ..., Flags = 0x02000004) -- CPU_ReadMem(12 bytes @ 0x40020058) - Data: 00 00 00 00 00 00 00 00 00 00 00 00  returns 0x0C (0000ms, 13660ms total)
T5150 1552:773 JLINK_ReadMemEx(0x40020064, 0x0004 Bytes, ..., Flags = 0x02000004) -- CPU_ReadMem(4 bytes @ 0x40020064) - Data: 00 00 00 00  returns 0x04 (0001ms, 13661ms total)
T5150 1552:774 JLINK_ReadMemEx(0x4002006C, 0x000C Bytes, ..., Flags = 0x02000004) -- CPU_ReadMem(12 bytes @ 0x4002006C) - Data: 00 00 00 00 00 00 00 00 00 00 00 00  returns 0x0C (0000ms, 13661ms total)
T5150 1552:774 JLINK_ReadMemEx(0x40020078, 0x0004 Bytes, ..., Flags = 0x02000004) -- CPU_ReadMem(4 bytes @ 0x40020078) - Data: 00 00 00 00  returns 0x04 (0001ms, 13662ms total)
T5150 1552:775 JLINK_ReadMemEx(0x40020080, 0x000C Bytes, ..., Flags = 0x02000004) -- CPU_ReadMem(12 bytes @ 0x40020080) - Data: 00 00 00 00 00 00 00 00 00 00 00 00  returns 0x0C (0000ms, 13662ms total)
T5150 1552:775 JLINK_ReadMemEx(0x4002008C, 0x0004 Bytes, ..., Flags = 0x02000004) -- CPU_ReadMem(4 bytes @ 0x4002008C) - Data: 00 00 00 00  returns 0x04 (0000ms, 13662ms total)
T5150 1552:884 JLINK_ReadMemEx(0x40004400, 0x0028 Bytes, ..., Flags = 0x02000004) -- CPU_ReadMem(40 bytes @ 0x40004400) - Data: 00 00 00 00 00 00 00 00 00 00 00 00 00 00 00 00 ...  returns 0x28 (0001ms, 13663ms total)
T5150 1552:885 JLINK_ReadMemEx(0x40004428, 0x0004 Bytes, ..., Flags = 0x02000004) -- CPU_ReadMem(4 bytes @ 0x40004428) - Data: 00 00 00 00  returns 0x04 (0000ms, 13663ms total)
T5150 1554:104 JLINK_ReadReg(R0)  returns 0xFFFFFFFF (0000ms, 13663ms total)
T5150 1554:104 JLINK_ReadReg(R1)  returns 0xFFFFFFFF (0000ms, 13663ms total)
T5150 1554:104 JLINK_ReadReg(R2)  returns 0xFFFFFFFF (0000ms, 13663ms total)
T5150 1554:104 JLINK_ReadReg(R3)  returns 0xFFFFFFFF (0000ms, 13663ms total)
T5150 1554:104 JLINK_ReadReg(R4)  returns 0xFFFFFFFF (0000ms, 13663ms total)
T5150 1554:104 JLINK_ReadReg(R5)  returns 0xFFFFFFFF (0000ms, 13663ms total)
T5150 1554:105 JLINK_ReadReg(R6)  returns 0xFFFFFFFF (0000ms, 13663ms total)
T5150 1554:105 JLINK_ReadReg(R7)  returns 0xFFFFFFFF (0000ms, 13663ms total)
T5150 1554:105 JLINK_ReadReg(R8)  returns 0xFFFFFFFF (0000ms, 13663ms total)
T5150 1554:105 JLINK_ReadReg(R9)  returns 0xFFFFFFFF (0000ms, 13663ms total)
T5150 1554:105 JLINK_ReadReg(R10)  returns 0xFFFFFFFF (0000ms, 13663ms total)
T5150 1554:105 JLINK_ReadReg(R11)  returns 0xFFFFFFFF (0000ms, 13663ms total)
T5150 1554:105 JLINK_ReadReg(R12)  returns 0xFFFFFFFF (0000ms, 13663ms total)
T5150 1554:105 JLINK_ReadReg(R13 (SP))  returns 0x200013C0 (0000ms, 13663ms total)
T5150 1554:105 JLINK_ReadReg(R14)  returns 0xFFFFFFFF (0000ms, 13663ms total)
T5150 1554:105 JLINK_ReadReg(R15 (PC))  returns 0x080000D4 (0000ms, 13663ms total)
T5150 1554:105 JLINK_ReadReg(XPSR)  returns 0xC1000000 (0000ms, 13663ms total)
T5150 1554:105 JLINK_ReadReg(MSP)  returns 0x200013C0 (0000ms, 13663ms total)
T5150 1554:105 JLINK_ReadReg(PSP)  returns 0xFFFFFFFC (0000ms, 13663ms total)
T5150 1554:105 JLINK_ReadReg(CFBP)  returns 0x00000000 (0000ms, 13663ms total)
T5150 1554:105 JLINK_ReadMemEx(0x20000420, 0x0268 Bytes, ..., Flags = 0x02000000) -- CPU_ReadMem(704 bytes @ 0x20000400) -- Updating C cache (704 bytes @ 0x20000400) -- Read from C cache (616 bytes @ 0x20000420) - Data: FF FF FF FF FF FF FF FF FF FF FF FF FF FF FF FF ...  returns 0x268 (0003ms, 13666ms total)
T4D40 1555:089 JLINK_ReadMemEx(0x080000D4, 0x0002 Bytes, ..., Flags = 0x02000000) -- CPU_ReadMem(64 bytes @ 0x080000C0) -- Updating C cache (64 bytes @ 0x080000C0) -- Read from C cache (2 bytes @ 0x080000D4) - Data: 0C 48  returns 0x02 (0001ms, 13667ms total)
T4D40 1555:090 JLINK_SetBPEx(Addr = 0x08004CE0, Type = 0xFFFFFFF2)  returns 0x00000001 (0000ms, 13667ms total)
T4D40 1555:090 JLINK_SetBPEx(Addr = 0x080032B2, Type = 0xFFFFFFF2)  returns 0x00000002 (0000ms, 13667ms total)
T4D40 1555:090 JLINK_Go() -- CPU_WriteMem(4 bytes @ 0xE0002000) -- CPU_WriteMem(4 bytes @ 0xE0002000) -- CPU_ReadMem(4 bytes @ 0xE0001000) -- CPU_WriteMem(4 bytes @ 0xE0001000) -- CPU_WriteMem(4 bytes @ 0xE0002008) -- CPU_WriteMem(4 bytes @ 0xE000200C) -- CPU_WriteMem(4 bytes @ 0xE0002010) -- CPU_WriteMem(4 bytes @ 0xE0002014) -- CPU_WriteMem(4 bytes @ 0xE0001004) (0002ms, 13669ms total)
T4D40 1555:194 JLINK_IsHalted()  returns TRUE (0001ms, 13670ms total)
T4D40 1555:195 JLINK_Halt()  returns 0x00 (0000ms, 13669ms total)
T4D40 1555:195 JLINK_IsHalted()  returns TRUE (0000ms, 13669ms total)
T4D40 1555:195 JLINK_IsHalted()  returns TRUE (0000ms, 13669ms total)
T4D40 1555:195 JLINK_IsHalted()  returns TRUE (0000ms, 13669ms total)
T4D40 1555:195 JLINK_ReadReg(R15 (PC))  returns 0x08004CE0 (0000ms, 13669ms total)
T4D40 1555:195 JLINK_ReadReg(XPSR)  returns 0x61000000 (0000ms, 13669ms total)
T4D40 1555:196 JLINK_ClrBPEx(BPHandle = 0x00000001)  returns 0x00 (0000ms, 13670ms total)
T4D40 1555:196 JLINK_ClrBPEx(BPHandle = 0x00000002)  returns 0x00 (0000ms, 13670ms total)
T4D40 1555:196 JLINK_ReadMemU32(0xE000ED30, 0x0001 Items, ...) -- CPU_ReadMem(4 bytes @ 0xE000ED30) - Data: 02 00 00 00  returns 0x01 (0000ms, 13670ms total)
T4D40 1555:196 JLINK_ReadMemU32(0xE0001028, 0x0001 Items, ...) -- CPU_ReadMem(4 bytes @ 0xE0001028) - Data: 00 00 00 00  returns 0x01 (0000ms, 13670ms total)
T4D40 1555:196 JLINK_ReadMemU32(0xE0001038, 0x0001 Items, ...) -- CPU_ReadMem(4 bytes @ 0xE0001038) - Data: 00 00 00 00  returns 0x01 (0000ms, 13670ms total)
T4D40 1555:196 JLINK_ReadReg(R0)  returns 0x08004CE1 (0000ms, 13670ms total)
T4D40 1555:196 JLINK_ReadReg(R1)  returns 0x200013C0 (0000ms, 13670ms total)
T4D40 1555:196 JLINK_ReadReg(R2)  returns 0x00000000 (0000ms, 13670ms total)
T4D40 1555:196 JLINK_ReadReg(R3)  returns 0x08004CD1 (0000ms, 13670ms total)
T4D40 1555:196 JLINK_ReadReg(R4)  returns 0x08004D74 (0000ms, 13670ms total)
T4D40 1555:197 JLINK_ReadReg(R5)  returns 0x00000001 (0000ms, 13671ms total)
T4D40 1555:197 JLINK_ReadReg(R6)  returns 0x08004D74 (0000ms, 13671ms total)
T4D40 1555:197 JLINK_ReadReg(R7)  returns 0xFFFFFFFF (0000ms, 13671ms total)
T4D40 1555:197 JLINK_ReadReg(R8)  returns 0xFFFFFFFF (0000ms, 13671ms total)
T4D40 1555:197 JLINK_ReadReg(R9)  returns 0xFFFFFFFF (0000ms, 13671ms total)
T4D40 1555:197 JLINK_ReadReg(R10)  returns 0xFFFFFFFF (0000ms, 13671ms total)
T4D40 1555:197 JLINK_ReadReg(R11)  returns 0xFFFFFFFF (0000ms, 13671ms total)
T4D40 1555:197 JLINK_ReadReg(R12)  returns 0xFFFFFFFF (0000ms, 13671ms total)
T4D40 1555:197 JLINK_ReadReg(R13 (SP))  returns 0x200013C0 (0000ms, 13671ms total)
T4D40 1555:197 JLINK_ReadReg(R14)  returns 0x08000199 (0000ms, 13671ms total)
T4D40 1555:197 JLINK_ReadReg(R15 (PC))  returns 0x08004CE0 (0000ms, 13671ms total)
T4D40 1555:197 JLINK_ReadReg(XPSR)  returns 0x61000000 (0000ms, 13671ms total)
T4D40 1555:197 JLINK_ReadReg(MSP)  returns 0x200013C0 (0000ms, 13671ms total)
T4D40 1555:197 JLINK_ReadReg(PSP)  returns 0xFFFFFFFC (0000ms, 13671ms total)
T4D40 1555:197 JLINK_ReadReg(CFBP)  returns 0x00000000 (0000ms, 13671ms total)
T5150 1555:197 JLINK_ReadMemEx(0x00000000, 0x0001 Bytes, ..., Flags = 0x02000000) -- CPU_ReadMem(4 bytes @ 0x00000004) -- CPU_ReadMem(64 bytes @ 0x08000000) -- Updating C cache (64 bytes @ 0x08000000) -- Read from C cache (1 bytes @ 0x08000000) - Data: C0  returns 0x01 (0001ms, 13672ms total)
T5150 1555:200 JLINK_ReadMemEx(0x20000420, 0x0268 Bytes, ..., Flags = 0x02000000) -- CPU_ReadMem(704 bytes @ 0x20000400) -- Updating C cache (704 bytes @ 0x20000400) -- Read from C cache (616 bytes @ 0x20000420) - Data: 00 00 00 00 00 00 00 00 00 00 00 00 00 00 00 00 ...  returns 0x268 (0003ms, 13675ms total)
T5150 1555:205 JLINK_ReadMemEx(0x40020000, 0x0004 Bytes, ..., Flags = 0x02000004) -- CPU_ReadMem(4 bytes @ 0x40020000) - Data: 00 00 00 00  returns 0x04 (0001ms, 13676ms total)
T5150 1555:206 JLINK_ReadMemEx(0x40020008, 0x000C Bytes, ..., Flags = 0x02000004) -- CPU_ReadMem(12 bytes @ 0x40020008) - Data: 00 00 00 00 00 00 00 00 00 00 00 00  returns 0x0C (0000ms, 13676ms total)
T5150 1555:206 JLINK_ReadMemEx(0x40020014, 0x0004 Bytes, ..., Flags = 0x02000004) -- CPU_ReadMem(4 bytes @ 0x40020014) - Data: 00 00 00 00  returns 0x04 (0000ms, 13676ms total)
T5150 1555:206 JLINK_ReadMemEx(0x4002001C, 0x000C Bytes, ..., Flags = 0x02000004) -- CPU_ReadMem(12 bytes @ 0x4002001C) - Data: 00 00 00 00 00 00 00 00 00 00 00 00  returns 0x0C (0001ms, 13677ms total)
T5150 1555:207 JLINK_ReadMemEx(0x40020028, 0x0004 Bytes, ..., Flags = 0x02000004) -- CPU_ReadMem(4 bytes @ 0x40020028) - Data: 00 00 00 00  returns 0x04 (0000ms, 13677ms total)
T5150 1555:207 JLINK_ReadMemEx(0x40020030, 0x000C Bytes, ..., Flags = 0x02000004) -- CPU_ReadMem(12 bytes @ 0x40020030) - Data: 00 00 00 00 00 00 00 00 00 00 00 00  returns 0x0C (0000ms, 13677ms total)
T5150 1555:207 JLINK_ReadMemEx(0x4002003C, 0x0004 Bytes, ..., Flags = 0x02000004) -- CPU_ReadMem(4 bytes @ 0x4002003C) - Data: 00 00 00 00  returns 0x04 (0000ms, 13677ms total)
T5150 1555:207 JLINK_ReadMemEx(0x40020044, 0x000C Bytes, ..., Flags = 0x02000004) -- CPU_ReadMem(12 bytes @ 0x40020044) - Data: 00 00 00 00 00 00 00 00 00 00 00 00  returns 0x0C (0001ms, 13678ms total)
T5150 1555:208 JLINK_ReadMemEx(0x40020050, 0x0004 Bytes, ..., Flags = 0x02000004) -- CPU_ReadMem(4 bytes @ 0x40020050) - Data: 00 00 00 00  returns 0x04 (0000ms, 13678ms total)
T5150 1555:208 JLINK_ReadMemEx(0x40020058, 0x000C Bytes, ..., Flags = 0x02000004) -- CPU_ReadMem(12 bytes @ 0x40020058) - Data: 00 00 00 00 00 00 00 00 00 00 00 00  returns 0x0C (0000ms, 13678ms total)
T5150 1555:208 JLINK_ReadMemEx(0x40020064, 0x0004 Bytes, ..., Flags = 0x02000004) -- CPU_ReadMem(4 bytes @ 0x40020064) - Data: 00 00 00 00  returns 0x04 (0001ms, 13679ms total)
T5150 1555:209 JLINK_ReadMemEx(0x4002006C, 0x000C Bytes, ..., Flags = 0x02000004) -- CPU_ReadMem(12 bytes @ 0x4002006C) - Data: 00 00 00 00 00 00 00 00 00 00 00 00  returns 0x0C (0000ms, 13679ms total)
T5150 1555:209 JLINK_ReadMemEx(0x40020078, 0x0004 Bytes, ..., Flags = 0x02000004) -- CPU_ReadMem(4 bytes @ 0x40020078) - Data: 00 00 00 00  returns 0x04 (0000ms, 13679ms total)
T5150 1555:209 JLINK_ReadMemEx(0x40020080, 0x000C Bytes, ..., Flags = 0x02000004) -- CPU_ReadMem(12 bytes @ 0x40020080) - Data: 00 00 00 00 00 00 00 00 00 00 00 00  returns 0x0C (0000ms, 13679ms total)
T5150 1555:209 JLINK_ReadMemEx(0x4002008C, 0x0004 Bytes, ..., Flags = 0x02000004) -- CPU_ReadMem(4 bytes @ 0x4002008C) - Data: 00 00 00 00  returns 0x04 (0001ms, 13680ms total)
T5150 1555:210 JLINK_ReadMemEx(0x40004400, 0x0028 Bytes, ..., Flags = 0x02000004) -- CPU_ReadMem(40 bytes @ 0x40004400) - Data: 00 00 00 00 00 00 00 00 00 00 00 00 00 00 00 00 ...  returns 0x28 (0001ms, 13681ms total)
T5150 1555:211 JLINK_ReadMemEx(0x40004428, 0x0004 Bytes, ..., Flags = 0x02000004) -- CPU_ReadMem(4 bytes @ 0x40004428) - Data: 00 00 00 00  returns 0x04 (0000ms, 13681ms total)
T4D40 1566:505 JLINK_ReadMemEx(0x08004CE0, 0x0002 Bytes, ..., Flags = 0x02000000) -- CPU_ReadMem(64 bytes @ 0x08004CC0) -- Updating C cache (64 bytes @ 0x08004CC0) -- Read from C cache (2 bytes @ 0x08004CE0) - Data: FB F7  returns 0x02 (0001ms, 13682ms total)
T4D40 1566:506 JLINK_SetBPEx(Addr = 0x080032B2, Type = 0xFFFFFFF2)  returns 0x00000003 (0000ms, 13682ms total)
T4D40 1566:506 JLINK_Go() -- CPU_WriteMem(4 bytes @ 0xE0002000) -- CPU_ReadMem(4 bytes @ 0xE0001000) -- CPU_WriteMem(4 bytes @ 0xE0001000) -- CPU_WriteMem(4 bytes @ 0xE0002008) -- CPU_WriteMem(4 bytes @ 0xE000200C) (0003ms, 13685ms total)
T4D40 1566:611 JLINK_IsHalted()  returns FALSE (0091ms, 13776ms total)
T4D40 1566:803 JLINK_IsHalted()  returns TRUE (0003ms, 13688ms total)
T4D40 1566:806 JLINK_Halt()  returns 0x00 (0000ms, 13685ms total)
T4D40 1566:806 JLINK_IsHalted()  returns TRUE (0000ms, 13685ms total)
T4D40 1566:806 JLINK_IsHalted()  returns TRUE (0000ms, 13685ms total)
T4D40 1566:806 JLINK_IsHalted()  returns TRUE (0000ms, 13685ms total)
T4D40 1566:806 JLINK_ReadReg(R15 (PC))  returns 0x080032B2 (0000ms, 13685ms total)
T4D40 1566:806 JLINK_ReadReg(XPSR)  returns 0x81000000 (0000ms, 13685ms total)
T4D40 1566:806 JLINK_ClrBPEx(BPHandle = 0x00000003)  returns 0x00 (0000ms, 13685ms total)
T4D40 1566:807 JLINK_ReadMemU32(0xE000ED30, 0x0001 Items, ...) -- CPU_ReadMem(4 bytes @ 0xE000ED30) - Data: 02 00 00 00  returns 0x01 (0000ms, 13685ms total)
T4D40 1566:807 JLINK_ReadMemU32(0xE0001028, 0x0001 Items, ...) -- CPU_ReadMem(4 bytes @ 0xE0001028) - Data: 00 00 00 00  returns 0x01 (0000ms, 13685ms total)
T4D40 1566:807 JLINK_ReadMemU32(0xE0001038, 0x0001 Items, ...) -- CPU_ReadMem(4 bytes @ 0xE0001038) - Data: 00 00 00 00  returns 0x01 (0001ms, 13686ms total)
T4D40 1566:808 JLINK_ReadReg(R0)  returns 0x2F0100C0 (0000ms, 13686ms total)
T4D40 1566:808 JLINK_ReadReg(R1)  returns 0x00000418 (0000ms, 13686ms total)
T4D40 1566:808 JLINK_ReadReg(R2)  returns 0x00000000 (0000ms, 13686ms total)
T4D40 1566:808 JLINK_ReadReg(R3)  returns 0x00000000 (0000ms, 13686ms total)
T4D40 1566:808 JLINK_ReadReg(R4)  returns 0x08004D74 (0000ms, 13686ms total)
T4D40 1566:808 JLINK_ReadReg(R5)  returns 0x00000001 (0000ms, 13686ms total)
T4D40 1566:808 JLINK_ReadReg(R6)  returns 0x08004D74 (0000ms, 13686ms total)
T4D40 1566:808 JLINK_ReadReg(R7)  returns 0xFFFFFFFF (0000ms, 13686ms total)
T4D40 1566:808 JLINK_ReadReg(R8)  returns 0xFFFFFFFF (0000ms, 13686ms total)
T4D40 1566:808 JLINK_ReadReg(R9)  returns 0xFFFFFFFF (0000ms, 13686ms total)
T4D40 1566:808 JLINK_ReadReg(R10)  returns 0xFFFFFFFF (0000ms, 13686ms total)
T4D40 1566:808 JLINK_ReadReg(R11)  returns 0xFFFFFFFF (0000ms, 13686ms total)
T4D40 1566:808 JLINK_ReadReg(R12)  returns 0xFFFFFFFF (0000ms, 13686ms total)
T4D40 1566:808 JLINK_ReadReg(R13 (SP))  returns 0x20001380 (0000ms, 13686ms total)
T4D40 1566:808 JLINK_ReadReg(R14)  returns 0x080032AB (0000ms, 13686ms total)
T4D40 1566:808 JLINK_ReadReg(R15 (PC))  returns 0x080032B2 (0000ms, 13686ms total)
T4D40 1566:808 JLINK_ReadReg(XPSR)  returns 0x81000000 (0000ms, 13686ms total)
T4D40 1566:808 JLINK_ReadReg(MSP)  returns 0x20001380 (0000ms, 13686ms total)
T4D40 1566:808 JLINK_ReadReg(PSP)  returns 0xFFFFFFFC (0000ms, 13686ms total)
T4D40 1566:808 JLINK_ReadReg(CFBP)  returns 0x00000000 (0000ms, 13686ms total)
T5150 1566:809 JLINK_ReadMemEx(0x20001380, 0x0020 Bytes, ..., Flags = 0x02000000) -- CPU_ReadMem(64 bytes @ 0x20001380) -- Updating C cache (64 bytes @ 0x20001380) -- Read from C cache (32 bytes @ 0x20001380) - Data: C0 00 01 2F 18 04 00 00 00 00 00 00 00 00 00 00 ...  returns 0x20 (0001ms, 13687ms total)
T5150 1566:811 JLINK_ReadMemEx(0x20000420, 0x0268 Bytes, ..., Flags = 0x02000000) -- CPU_ReadMem(704 bytes @ 0x20000400) -- Updating C cache (704 bytes @ 0x20000400) -- Read from C cache (616 bytes @ 0x20000420) - Data: 00 00 00 00 00 00 00 00 00 00 00 00 00 00 00 00 ...  returns 0x268 (0006ms, 13693ms total)
T5150 1566:819 JLINK_ReadMemEx(0x40020000, 0x0004 Bytes, ..., Flags = 0x02000004) -- CPU_ReadMem(4 bytes @ 0x40020000) - Data: 00 00 00 00  returns 0x04 (0000ms, 13693ms total)
T5150 1566:819 JLINK_ReadMemEx(0x40020008, 0x000C Bytes, ..., Flags = 0x02000004) -- CPU_ReadMem(12 bytes @ 0x40020008) - Data: 00 00 00 00 00 00 00 00 00 00 00 00  returns 0x0C (0001ms, 13694ms total)
T5150 1566:820 JLINK_ReadMemEx(0x40020014, 0x0004 Bytes, ..., Flags = 0x02000004) -- CPU_ReadMem(4 bytes @ 0x40020014) - Data: 00 00 00 00  returns 0x04 (0000ms, 13694ms total)
T5150 1566:820 JLINK_ReadMemEx(0x4002001C, 0x000C Bytes, ..., Flags = 0x02000004) -- CPU_ReadMem(12 bytes @ 0x4002001C) - Data: 00 00 00 00 00 00 00 00 00 00 00 00  returns 0x0C (0001ms, 13695ms total)
T5150 1566:821 JLINK_ReadMemEx(0x40020028, 0x0004 Bytes, ..., Flags = 0x02000004) -- CPU_ReadMem(4 bytes @ 0x40020028) - Data: 00 00 00 00  returns 0x04 (0000ms, 13695ms total)
T5150 1566:821 JLINK_ReadMemEx(0x40020030, 0x000C Bytes, ..., Flags = 0x02000004) -- CPU_ReadMem(12 bytes @ 0x40020030) - Data: 00 00 00 00 00 00 00 00 00 00 00 00  returns 0x0C (0000ms, 13695ms total)
T5150 1566:822 JLINK_ReadMemEx(0x4002003C, 0x0004 Bytes, ..., Flags = 0x02000004) -- CPU_ReadMem(4 bytes @ 0x4002003C) - Data: 00 00 00 00  returns 0x04 (0000ms, 13696ms total)
T5150 1566:822 JLINK_ReadMemEx(0x40020044, 0x000C Bytes, ..., Flags = 0x02000004) -- CPU_ReadMem(12 bytes @ 0x40020044) - Data: 00 00 00 00 00 00 00 00 00 00 00 00  returns 0x0C (0000ms, 13696ms total)
T5150 1566:822 JLINK_ReadMemEx(0x40020050, 0x0004 Bytes, ..., Flags = 0x02000004) -- CPU_ReadMem(4 bytes @ 0x40020050) - Data: 00 00 00 00  returns 0x04 (0001ms, 13697ms total)
T5150 1566:823 JLINK_ReadMemEx(0x40020058, 0x000C Bytes, ..., Flags = 0x02000004) -- CPU_ReadMem(12 bytes @ 0x40020058) - Data: AF 00 00 00 00 01 00 00 24 44 00 40  returns 0x0C (0000ms, 13697ms total)
T5150 1566:823 JLINK_ReadMemEx(0x40020064, 0x0004 Bytes, ..., Flags = 0x02000004) -- CPU_ReadMem(4 bytes @ 0x40020064) - Data: 20 04 00 20  returns 0x04 (0001ms, 13698ms total)
T5150 1566:824 JLINK_ReadMemEx(0x4002006C, 0x000C Bytes, ..., Flags = 0x02000004) -- CPU_ReadMem(12 bytes @ 0x4002006C) - Data: 00 00 00 00 00 00 00 00 00 00 00 00  returns 0x0C (0000ms, 13698ms total)
T5150 1566:824 JLINK_ReadMemEx(0x40020078, 0x0004 Bytes, ..., Flags = 0x02000004) -- CPU_ReadMem(4 bytes @ 0x40020078) - Data: 00 00 00 00  returns 0x04 (0001ms, 13699ms total)
T5150 1566:825 JLINK_ReadMemEx(0x40020080, 0x000C Bytes, ..., Flags = 0x02000004) -- CPU_ReadMem(12 bytes @ 0x40020080) - Data: 00 00 00 00 00 00 00 00 00 00 00 00  returns 0x0C (0000ms, 13699ms total)
T5150 1566:825 JLINK_ReadMemEx(0x4002008C, 0x0004 Bytes, ..., Flags = 0x02000004) -- CPU_ReadMem(4 bytes @ 0x4002008C) - Data: 00 00 00 00  returns 0x04 (0000ms, 13699ms total)
T5150 1566:847 JLINK_ReadMemEx(0x40004400, 0x0028 Bytes, ..., Flags = 0x02000004) -- CPU_ReadMem(40 bytes @ 0x40004400) - Data: 0D 01 00 00 00 00 00 00 41 00 00 00 88 13 00 00 ...  returns 0x28 (0001ms, 13700ms total)
T5150 1566:848 JLINK_ReadMemEx(0x40004428, 0x0004 Bytes, ..., Flags = 0x02000004) -- CPU_ReadMem(4 bytes @ 0x40004428) - Data: 00 00 00 00  returns 0x04 (0000ms, 13700ms total)
T4D40 1567:716 JLINK_ReadMemEx(0x080032B2, 0x0002 Bytes, ..., Flags = 0x02000000) -- CPU_ReadMem(64 bytes @ 0x08003280) -- Updating C cache (64 bytes @ 0x08003280) -- Read from C cache (2 bytes @ 0x080032B2) - Data: 00 BF  returns 0x02 (0001ms, 13701ms total)
T4D40 1567:717 JLINK_Step() -- Read from C cache (2 bytes @ 0x080032B2) -- CPU_ReadMem(4 bytes @ 0xE000ED18) -- CPU_WriteMem(4 bytes @ 0xE000ED18) -- CPU_ReadMem(4 bytes @ 0xE000ED18) -- CPU_WriteMem(4 bytes @ 0xE000ED18) -- CPU_ReadMem(4 bytes @ 0xE0001004) -- Simulated  returns 0x00 (0002ms, 13703ms total)
T4D40 1567:719 JLINK_ReadReg(R15 (PC))  returns 0x080032B4 (0000ms, 13703ms total)
T4D40 1567:719 JLINK_ReadReg(XPSR)  returns 0x81000000 (0000ms, 13703ms total)
T4D40 1567:719 JLINK_SetBPEx(Addr = 0x080032B2, Type = 0xFFFFFFF2)  returns 0x00000004 (0000ms, 13703ms total)
T4D40 1567:720 JLINK_Go() -- CPU_WriteMem(4 bytes @ 0xE0002000) -- CPU_ReadMem(4 bytes @ 0xE0001000) -- CPU_WriteMem(4 bytes @ 0xE0001000) -- CPU_WriteMem(4 bytes @ 0xE0001004) (0002ms, 13706ms total)
T4D40 1567:823 JLINK_IsHalted()  returns FALSE (0000ms, 13706ms total)
T4D40 1567:923 JLINK_IsHalted()  returns FALSE (0000ms, 13706ms total)
T4D40 1568:024 JLINK_IsHalted()  returns FALSE (0000ms, 13706ms total)
T4D40 1568:125 JLINK_IsHalted()  returns FALSE (0000ms, 13706ms total)
T4D40 1568:226 JLINK_IsHalted()  returns FALSE (0000ms, 13706ms total)
T5150 1568:328 JLINK_ReadMemEx(0x20000420, 0x0268 Bytes, ..., Flags = 0x02000000) -- CPU_ReadMem(616 bytes @ 0x20000420) - Data: 00 00 00 00 00 00 00 00 00 00 00 00 00 00 00 00 ...  returns 0x268 (0005ms, 13711ms total)
T5150 1568:335 JLINK_ReadMemEx(0x40020000, 0x0004 Bytes, ..., Flags = 0x02000004) -- CPU_ReadMem(4 bytes @ 0x40020000) - Data: 00 00 00 00  returns 0x04 (0000ms, 13711ms total)
T5150 1568:335 JLINK_ReadMemEx(0x40020008, 0x000C Bytes, ..., Flags = 0x02000004) -- CPU_ReadMem(12 bytes @ 0x40020008) - Data: 00 00 00 00 00 00 00 00 00 00 00 00  returns 0x0C (0001ms, 13712ms total)
T5150 1568:336 JLINK_ReadMemEx(0x40020014, 0x0004 Bytes, ..., Flags = 0x02000004) -- CPU_ReadMem(4 bytes @ 0x40020014) - Data: 00 00 00 00  returns 0x04 (0000ms, 13712ms total)
T5150 1568:336 JLINK_ReadMemEx(0x4002001C, 0x000C Bytes, ..., Flags = 0x02000004) -- CPU_ReadMem(12 bytes @ 0x4002001C) - Data: 00 00 00 00 00 00 00 00 00 00 00 00  returns 0x0C (0001ms, 13713ms total)
T5150 1568:337 JLINK_ReadMemEx(0x40020028, 0x0004 Bytes, ..., Flags = 0x02000004) -- CPU_ReadMem(4 bytes @ 0x40020028) - Data: 00 00 00 00  returns 0x04 (0000ms, 13713ms total)
T5150 1568:337 JLINK_ReadMemEx(0x40020030, 0x000C Bytes, ..., Flags = 0x02000004) -- CPU_ReadMem(12 bytes @ 0x40020030) - Data: 00 00 00 00 00 00 00 00 00 00 00 00  returns 0x0C (0001ms, 13714ms total)
T5150 1568:338 JLINK_ReadMemEx(0x4002003C, 0x0004 Bytes, ..., Flags = 0x02000004) -- CPU_ReadMem(4 bytes @ 0x4002003C) - Data: 00 00 00 00  returns 0x04 (0000ms, 13714ms total)
T5150 1568:338 JLINK_ReadMemEx(0x40020044, 0x000C Bytes, ..., Flags = 0x02000004) -- CPU_ReadMem(12 bytes @ 0x40020044) - Data: 00 00 00 00 00 00 00 00 00 00 00 00  returns 0x0C (0000ms, 13714ms total)
T5150 1568:338 JLINK_ReadMemEx(0x40020050, 0x0004 Bytes, ..., Flags = 0x02000004) -- CPU_ReadMem(4 bytes @ 0x40020050) - Data: 00 00 00 00  returns 0x04 (0001ms, 13715ms total)
T5150 1568:339 JLINK_ReadMemEx(0x40020058, 0x000C Bytes, ..., Flags = 0x02000004) -- CPU_ReadMem(12 bytes @ 0x40020058) - Data: AF 00 00 00 00 01 00 00 24 44 00 40  returns 0x0C (0000ms, 13715ms total)
T5150 1568:339 JLINK_ReadMemEx(0x40020064, 0x0004 Bytes, ..., Flags = 0x02000004) -- CPU_ReadMem(4 bytes @ 0x40020064) - Data: 20 04 00 20  returns 0x04 (0001ms, 13716ms total)
T5150 1568:340 JLINK_ReadMemEx(0x4002006C, 0x000C Bytes, ..., Flags = 0x02000004) -- CPU_ReadMem(12 bytes @ 0x4002006C) - Data: 00 00 00 00 00 00 00 00 00 00 00 00  returns 0x0C (0000ms, 13716ms total)
T5150 1568:340 JLINK_ReadMemEx(0x40020078, 0x0004 Bytes, ..., Flags = 0x02000004) -- CPU_ReadMem(4 bytes @ 0x40020078) - Data: 00 00 00 00  returns 0x04 (0000ms, 13716ms total)
T5150 1568:341 JLINK_ReadMemEx(0x40020080, 0x000C Bytes, ..., Flags = 0x02000004) -- CPU_ReadMem(12 bytes @ 0x40020080) - Data: 00 00 00 00 00 00 00 00 00 00 00 00  returns 0x0C (0000ms, 13717ms total)
T5150 1568:341 JLINK_ReadMemEx(0x4002008C, 0x0004 Bytes, ..., Flags = 0x02000004) -- CPU_ReadMem(4 bytes @ 0x4002008C) - Data: 00 00 00 00  returns 0x04 (0000ms, 13717ms total)
T5150 1568:342 JLINK_ReadMemEx(0x40004400, 0x0028 Bytes, ..., Flags = 0x02000004) -- CPU_ReadMem(40 bytes @ 0x40004400) - Data: 0D 01 00 00 00 00 00 00 41 00 00 00 88 13 00 00 ...  returns 0x28 (0001ms, 13718ms total)
T5150 1568:343 JLINK_ReadMemEx(0x40004428, 0x0004 Bytes, ..., Flags = 0x02000004) -- CPU_ReadMem(4 bytes @ 0x40004428) - Data: 04 00 00 00  returns 0x04 (0000ms, 13718ms total)
T4D40 1568:343 JLINK_IsHalted()  returns FALSE (0001ms, 13719ms total)
T4D40 1568:445 JLINK_IsHalted()  returns FALSE (0000ms, 13718ms total)
T4D40 1568:546 JLINK_IsHalted()  returns FALSE (0000ms, 13718ms total)
T4D40 1568:647 JLINK_IsHalted()  returns FALSE (0000ms, 13718ms total)
T4D40 1568:747 JLINK_IsHalted()  returns FALSE (0000ms, 13718ms total)
T5150 1568:849 JLINK_ReadMemEx(0x20000420, 0x0268 Bytes, ..., Flags = 0x02000000) -- CPU_ReadMem(616 bytes @ 0x20000420) - Data: 00 00 00 00 00 00 00 00 00 00 00 00 00 00 00 00 ...  returns 0x268 (0005ms, 13723ms total)
T5150 1568:856 JLINK_ReadMemEx(0x40020000, 0x0004 Bytes, ..., Flags = 0x02000004) -- CPU_ReadMem(4 bytes @ 0x40020000) - Data: 00 00 00 00  returns 0x04 (0000ms, 13723ms total)
T5150 1568:856 JLINK_ReadMemEx(0x40020008, 0x000C Bytes, ..., Flags = 0x02000004) -- CPU_ReadMem(12 bytes @ 0x40020008) - Data: 00 00 00 00 00 00 00 00 00 00 00 00  returns 0x0C (0001ms, 13724ms total)
T5150 1568:857 JLINK_ReadMemEx(0x40020014, 0x0004 Bytes, ..., Flags = 0x02000004) -- CPU_ReadMem(4 bytes @ 0x40020014) - Data: 00 00 00 00  returns 0x04 (0000ms, 13724ms total)
T5150 1568:857 JLINK_ReadMemEx(0x4002001C, 0x000C Bytes, ..., Flags = 0x02000004) -- CPU_ReadMem(12 bytes @ 0x4002001C) - Data: 00 00 00 00 00 00 00 00 00 00 00 00  returns 0x0C (0001ms, 13725ms total)
T5150 1568:858 JLINK_ReadMemEx(0x40020028, 0x0004 Bytes, ..., Flags = 0x02000004) -- CPU_ReadMem(4 bytes @ 0x40020028) - Data: 00 00 00 00  returns 0x04 (0000ms, 13725ms total)
T5150 1568:858 JLINK_ReadMemEx(0x40020030, 0x000C Bytes, ..., Flags = 0x02000004) -- CPU_ReadMem(12 bytes @ 0x40020030) - Data: 00 00 00 00 00 00 00 00 00 00 00 00  returns 0x0C (0001ms, 13726ms total)
T5150 1568:859 JLINK_ReadMemEx(0x4002003C, 0x0004 Bytes, ..., Flags = 0x02000004) -- CPU_ReadMem(4 bytes @ 0x4002003C) - Data: 00 00 00 00  returns 0x04 (0000ms, 13726ms total)
T5150 1568:859 JLINK_ReadMemEx(0x40020044, 0x000C Bytes, ..., Flags = 0x02000004) -- CPU_ReadMem(12 bytes @ 0x40020044) - Data: 00 00 00 00 00 00 00 00 00 00 00 00  returns 0x0C (0001ms, 13727ms total)
T5150 1568:860 JLINK_ReadMemEx(0x40020050, 0x0004 Bytes, ..., Flags = 0x02000004) -- CPU_ReadMem(4 bytes @ 0x40020050) - Data: 00 00 00 00  returns 0x04 (0000ms, 13727ms total)
T5150 1568:860 JLINK_ReadMemEx(0x40020058, 0x000C Bytes, ..., Flags = 0x02000004) -- CPU_ReadMem(12 bytes @ 0x40020058) - Data: AF 00 00 00 00 01 00 00 24 44 00 40  returns 0x0C (0000ms, 13727ms total)
T5150 1568:860 JLINK_ReadMemEx(0x40020064, 0x0004 Bytes, ..., Flags = 0x02000004) -- CPU_ReadMem(4 bytes @ 0x40020064) - Data: 20 04 00 20  returns 0x04 (0001ms, 13728ms total)
T5150 1568:861 JLINK_ReadMemEx(0x4002006C, 0x000C Bytes, ..., Flags = 0x02000004) -- CPU_ReadMem(12 bytes @ 0x4002006C) - Data: 00 00 00 00 00 00 00 00 00 00 00 00  returns 0x0C (0000ms, 13728ms total)
T5150 1568:861 JLINK_ReadMemEx(0x40020078, 0x0004 Bytes, ..., Flags = 0x02000004) -- CPU_ReadMem(4 bytes @ 0x40020078) - Data: 00 00 00 00  returns 0x04 (0000ms, 13728ms total)
T5150 1568:861 JLINK_ReadMemEx(0x40020080, 0x000C Bytes, ..., Flags = 0x02000004) -- CPU_ReadMem(12 bytes @ 0x40020080) - Data: 00 00 00 00 00 00 00 00 00 00 00 00  returns 0x0C (0001ms, 13729ms total)
T5150 1568:862 JLINK_ReadMemEx(0x4002008C, 0x0004 Bytes, ..., Flags = 0x02000004) -- CPU_ReadMem(4 bytes @ 0x4002008C) - Data: 00 00 00 00  returns 0x04 (0000ms, 13729ms total)
T5150 1568:863 JLINK_ReadMemEx(0x40004400, 0x0028 Bytes, ..., Flags = 0x02000004) -- CPU_ReadMem(40 bytes @ 0x40004400) - Data: 0D 01 00 00 00 00 00 00 41 00 00 00 88 13 00 00 ...  returns 0x28 (0000ms, 13729ms total)
T5150 1568:863 JLINK_ReadMemEx(0x40004428, 0x0004 Bytes, ..., Flags = 0x02000004) -- CPU_ReadMem(4 bytes @ 0x40004428) - Data: 30 00 00 00  returns 0x04 (0001ms, 13730ms total)
T4D40 1568:864 JLINK_IsHalted()  returns FALSE (0000ms, 13730ms total)
T4D40 1568:966 JLINK_IsHalted()  returns FALSE (0000ms, 13730ms total)
T4D40 1569:066 JLINK_IsHalted()  returns FALSE (0000ms, 13730ms total)
T4D40 1569:167 JLINK_IsHalted()  returns FALSE (0000ms, 13730ms total)
T4D40 1569:268 JLINK_IsHalted()  returns FALSE (0000ms, 13730ms total)
T5150 1569:370 JLINK_ReadMemEx(0x20000420, 0x0268 Bytes, ..., Flags = 0x02000000) -- CPU_ReadMem(616 bytes @ 0x20000420) - Data: 00 00 00 00 00 00 00 00 00 00 00 00 00 00 00 00 ...  returns 0x268 (0125ms, 13855ms total)
T5150 1569:496 JLINK_ReadMemEx(0x40020000, 0x0004 Bytes, ..., Flags = 0x02000004) -- CPU_ReadMem(4 bytes @ 0x40020000) - Data: 00 00 00 00  returns 0x04 (0001ms, 13856ms total)
T5150 1569:497 JLINK_ReadMemEx(0x40020008, 0x000C Bytes, ..., Flags = 0x02000004) -- CPU_ReadMem(12 bytes @ 0x40020008) - Data: 00 00 00 00 00 00 00 00 00 00 00 00  returns 0x0C (0000ms, 13856ms total)
T5150 1569:497 JLINK_ReadMemEx(0x40020014, 0x0004 Bytes, ..., Flags = 0x02000004) -- CPU_ReadMem(4 bytes @ 0x40020014) - Data: 00 00 00 00  returns 0x04 (0001ms, 13857ms total)
T5150 1569:498 JLINK_ReadMemEx(0x4002001C, 0x000C Bytes, ..., Flags = 0x02000004) -- CPU_ReadMem(12 bytes @ 0x4002001C) - Data: 00 00 00 00 00 00 00 00 00 00 00 00  returns 0x0C (0000ms, 13857ms total)
T5150 1569:498 JLINK_ReadMemEx(0x40020028, 0x0004 Bytes, ..., Flags = 0x02000004) -- CPU_ReadMem(4 bytes @ 0x40020028) - Data: 00 00 00 00  returns 0x04 (0000ms, 13857ms total)
T5150 1569:498 JLINK_ReadMemEx(0x40020030, 0x000C Bytes, ..., Flags = 0x02000004) -- CPU_ReadMem(12 bytes @ 0x40020030) - Data: 00 00 00 00 00 00 00 00 00 00 00 00  returns 0x0C (0001ms, 13858ms total)
T5150 1569:499 JLINK_ReadMemEx(0x4002003C, 0x0004 Bytes, ..., Flags = 0x02000004) -- CPU_ReadMem(4 bytes @ 0x4002003C) - Data: 00 00 00 00  returns 0x04 (0000ms, 13858ms total)
T5150 1569:499 JLINK_ReadMemEx(0x40020044, 0x000C Bytes, ..., Flags = 0x02000004) -- CPU_ReadMem(12 bytes @ 0x40020044) - Data: 00 00 00 00 00 00 00 00 00 00 00 00  returns 0x0C (0001ms, 13859ms total)
T5150 1569:500 JLINK_ReadMemEx(0x40020050, 0x0004 Bytes, ..., Flags = 0x02000004) -- CPU_ReadMem(4 bytes @ 0x40020050) - Data: 00 00 00 00  returns 0x04 (0000ms, 13859ms total)
T5150 1569:500 JLINK_ReadMemEx(0x40020058, 0x000C Bytes, ..., Flags = 0x02000004) -- CPU_ReadMem(12 bytes @ 0x40020058) - Data: AF 00 00 00 00 01 00 00 24 44 00 40  returns 0x0C (0000ms, 13859ms total)
T5150 1569:500 JLINK_ReadMemEx(0x40020064, 0x0004 Bytes, ..., Flags = 0x02000004) -- CPU_ReadMem(4 bytes @ 0x40020064) - Data: 20 04 00 20  returns 0x04 (0001ms, 13860ms total)
T5150 1569:501 JLINK_ReadMemEx(0x4002006C, 0x000C Bytes, ..., Flags = 0x02000004) -- CPU_ReadMem(12 bytes @ 0x4002006C) - Data: 00 00 00 00 00 00 00 00 00 00 00 00  returns 0x0C (0000ms, 13860ms total)
T5150 1569:501 JLINK_ReadMemEx(0x40020078, 0x0004 Bytes, ..., Flags = 0x02000004) -- CPU_ReadMem(4 bytes @ 0x40020078) - Data: 00 00 00 00  returns 0x04 (0000ms, 13860ms total)
T5150 1569:502 JLINK_ReadMemEx(0x40020080, 0x000C Bytes, ..., Flags = 0x02000004) -- CPU_ReadMem(12 bytes @ 0x40020080) - Data: 00 00 00 00 00 00 00 00 00 00 00 00  returns 0x0C (0000ms, 13861ms total)
T5150 1569:502 JLINK_ReadMemEx(0x4002008C, 0x0004 Bytes, ..., Flags = 0x02000004) -- CPU_ReadMem(4 bytes @ 0x4002008C) - Data: 00 00 00 00  returns 0x04 (0000ms, 13861ms total)
T5150 1569:503 JLINK_ReadMemEx(0x40004400, 0x0028 Bytes, ..., Flags = 0x02000004) -- CPU_ReadMem(40 bytes @ 0x40004400) - Data: 0D 01 00 00 00 00 00 00 41 00 00 00 88 13 00 00 ...  returns 0x28 (0000ms, 13861ms total)
T5150 1569:503 JLINK_ReadMemEx(0x40004428, 0x0004 Bytes, ..., Flags = 0x02000004) -- CPU_ReadMem(4 bytes @ 0x40004428) - Data: FE 00 00 00  returns 0x04 (0001ms, 13862ms total)
T4D40 1569:504 JLINK_IsHalted()  returns FALSE (0000ms, 13862ms total)
T4D40 1569:606 JLINK_IsHalted()  returns FALSE (0000ms, 13862ms total)
T4D40 1569:707 JLINK_IsHalted()  returns FALSE (0000ms, 13862ms total)
T4D40 1569:808 JLINK_IsHalted()  returns FALSE (0000ms, 13862ms total)
T5150 1569:910 JLINK_ReadMemEx(0x20000420, 0x0268 Bytes, ..., Flags = 0x02000000) -- CPU_ReadMem(616 bytes @ 0x20000420) - Data: 00 00 00 00 00 00 00 00 00 00 00 00 00 00 00 00 ...  returns 0x268 (0005ms, 13867ms total)
T5150 1569:916 JLINK_ReadMemEx(0x40020000, 0x0004 Bytes, ..., Flags = 0x02000004) -- CPU_ReadMem(4 bytes @ 0x40020000) - Data: 00 00 00 00  returns 0x04 (0001ms, 13868ms total)
T5150 1569:917 JLINK_ReadMemEx(0x40020008, 0x000C Bytes, ..., Flags = 0x02000004) -- CPU_ReadMem(12 bytes @ 0x40020008) - Data: 00 00 00 00 00 00 00 00 00 00 00 00  returns 0x0C (0000ms, 13868ms total)
T5150 1569:917 JLINK_ReadMemEx(0x40020014, 0x0004 Bytes, ..., Flags = 0x02000004) -- CPU_ReadMem(4 bytes @ 0x40020014) - Data: 00 00 00 00  returns 0x04 (0001ms, 13869ms total)
T5150 1569:918 JLINK_ReadMemEx(0x4002001C, 0x000C Bytes, ..., Flags = 0x02000004) -- CPU_ReadMem(12 bytes @ 0x4002001C) - Data: 00 00 00 00 00 00 00 00 00 00 00 00  returns 0x0C (0000ms, 13869ms total)
T5150 1569:918 JLINK_ReadMemEx(0x40020028, 0x0004 Bytes, ..., Flags = 0x02000004) -- CPU_ReadMem(4 bytes @ 0x40020028) - Data: 00 00 00 00  returns 0x04 (0001ms, 13870ms total)
T5150 1569:919 JLINK_ReadMemEx(0x40020030, 0x000C Bytes, ..., Flags = 0x02000004) -- CPU_ReadMem(12 bytes @ 0x40020030) - Data: 00 00 00 00 00 00 00 00 00 00 00 00  returns 0x0C (0000ms, 13870ms total)
T5150 1569:919 JLINK_ReadMemEx(0x4002003C, 0x0004 Bytes, ..., Flags = 0x02000004) -- CPU_ReadMem(4 bytes @ 0x4002003C) - Data: 00 00 00 00  returns 0x04 (0001ms, 13871ms total)
T5150 1569:920 JLINK_ReadMemEx(0x40020044, 0x000C Bytes, ..., Flags = 0x02000004) -- CPU_ReadMem(12 bytes @ 0x40020044) - Data: 00 00 00 00 00 00 00 00 00 00 00 00  returns 0x0C (0000ms, 13871ms total)
T5150 1569:920 JLINK_ReadMemEx(0x40020050, 0x0004 Bytes, ..., Flags = 0x02000004) -- CPU_ReadMem(4 bytes @ 0x40020050) - Data: 00 00 00 00  returns 0x04 (0000ms, 13871ms total)
T5150 1569:920 JLINK_ReadMemEx(0x40020058, 0x000C Bytes, ..., Flags = 0x02000004) -- CPU_ReadMem(12 bytes @ 0x40020058) - Data: AF 00 00 00 00 01 00 00 24 44 00 40  returns 0x0C (0001ms, 13872ms total)
T5150 1569:921 JLINK_ReadMemEx(0x40020064, 0x0004 Bytes, ..., Flags = 0x02000004) -- CPU_ReadMem(4 bytes @ 0x40020064) - Data: 20 04 00 20  returns 0x04 (0000ms, 13872ms total)
T5150 1569:921 JLINK_ReadMemEx(0x4002006C, 0x000C Bytes, ..., Flags = 0x02000004) -- CPU_ReadMem(12 bytes @ 0x4002006C) - Data: 00 00 00 00 00 00 00 00 00 00 00 00  returns 0x0C (0001ms, 13873ms total)
T5150 1569:922 JLINK_ReadMemEx(0x40020078, 0x0004 Bytes, ..., Flags = 0x02000004) -- CPU_ReadMem(4 bytes @ 0x40020078) - Data: 00 00 00 00  returns 0x04 (0000ms, 13873ms total)
T5150 1569:922 JLINK_ReadMemEx(0x40020080, 0x000C Bytes, ..., Flags = 0x02000004) -- CPU_ReadMem(12 bytes @ 0x40020080) - Data: 00 00 00 00 00 00 00 00 00 00 00 00  returns 0x0C (0001ms, 13874ms total)
T5150 1569:923 JLINK_ReadMemEx(0x4002008C, 0x0004 Bytes, ..., Flags = 0x02000004) -- CPU_ReadMem(4 bytes @ 0x4002008C) - Data: 00 00 00 00  returns 0x04 (0000ms, 13874ms total)
T5150 1569:923 JLINK_ReadMemEx(0x40004400, 0x0028 Bytes, ..., Flags = 0x02000004) -- CPU_ReadMem(40 bytes @ 0x40004400) - Data: 0D 01 00 00 00 00 00 00 41 00 00 00 88 13 00 00 ...  returns 0x28 (0001ms, 13875ms total)
T5150 1569:924 JLINK_ReadMemEx(0x40004428, 0x0004 Bytes, ..., Flags = 0x02000004) -- CPU_ReadMem(4 bytes @ 0x40004428) - Data: FE 00 00 00  returns 0x04 (0000ms, 13875ms total)
T4D40 1569:925 JLINK_IsHalted()  returns FALSE (0000ms, 13875ms total)
T4D40 1570:025 JLINK_IsHalted()  returns FALSE (0000ms, 13875ms total)
T4D40 1570:126 JLINK_IsHalted()  returns FALSE (0000ms, 13875ms total)
T4D40 1570:227 JLINK_IsHalted()  returns FALSE (0000ms, 13875ms total)
T4D40 1570:328 JLINK_IsHalted()  returns FALSE (0000ms, 13875ms total)
T5150 1570:429 JLINK_ReadMemEx(0x20000420, 0x0268 Bytes, ..., Flags = 0x02000000) -- CPU_ReadMem(616 bytes @ 0x20000420) - Data: 00 00 00 00 00 00 00 00 00 00 00 00 00 00 00 00 ...  returns 0x268 (0005ms, 13880ms total)
T5150 1570:436 JLINK_ReadMemEx(0x40020000, 0x0004 Bytes, ..., Flags = 0x02000004) -- CPU_ReadMem(4 bytes @ 0x40020000) - Data: 00 00 00 00  returns 0x04 (0001ms, 13881ms total)
T5150 1570:437 JLINK_ReadMemEx(0x40020008, 0x000C Bytes, ..., Flags = 0x02000004) -- CPU_ReadMem(12 bytes @ 0x40020008) - Data: 00 00 00 00 00 00 00 00 00 00 00 00  returns 0x0C (0000ms, 13881ms total)
T5150 1570:437 JLINK_ReadMemEx(0x40020014, 0x0004 Bytes, ..., Flags = 0x02000004) -- CPU_ReadMem(4 bytes @ 0x40020014) - Data: 00 00 00 00  returns 0x04 (0000ms, 13881ms total)
T5150 1570:437 JLINK_ReadMemEx(0x4002001C, 0x000C Bytes, ..., Flags = 0x02000004) -- CPU_ReadMem(12 bytes @ 0x4002001C) - Data: 00 00 00 00 00 00 00 00 00 00 00 00  returns 0x0C (0001ms, 13882ms total)
T5150 1570:438 JLINK_ReadMemEx(0x40020028, 0x0004 Bytes, ..., Flags = 0x02000004) -- CPU_ReadMem(4 bytes @ 0x40020028) - Data: 00 00 00 00  returns 0x04 (0000ms, 13882ms total)
T5150 1570:438 JLINK_ReadMemEx(0x40020030, 0x000C Bytes, ..., Flags = 0x02000004) -- CPU_ReadMem(12 bytes @ 0x40020030) - Data: 00 00 00 00 00 00 00 00 00 00 00 00  returns 0x0C (0001ms, 13883ms total)
T5150 1570:439 JLINK_ReadMemEx(0x4002003C, 0x0004 Bytes, ..., Flags = 0x02000004) -- CPU_ReadMem(4 bytes @ 0x4002003C) - Data: 00 00 00 00  returns 0x04 (0000ms, 13883ms total)
T5150 1570:439 JLINK_ReadMemEx(0x40020044, 0x000C Bytes, ..., Flags = 0x02000004) -- CPU_ReadMem(12 bytes @ 0x40020044) - Data: 00 00 00 00 00 00 00 00 00 00 00 00  returns 0x0C (0000ms, 13883ms total)
T5150 1570:439 JLINK_ReadMemEx(0x40020050, 0x0004 Bytes, ..., Flags = 0x02000004) -- CPU_ReadMem(4 bytes @ 0x40020050) - Data: 00 00 00 00  returns 0x04 (0001ms, 13884ms total)
T5150 1570:440 JLINK_ReadMemEx(0x40020058, 0x000C Bytes, ..., Flags = 0x02000004) -- CPU_ReadMem(12 bytes @ 0x40020058) - Data: AF 00 00 00 00 01 00 00 24 44 00 40  returns 0x0C (0000ms, 13884ms total)
T5150 1570:440 JLINK_ReadMemEx(0x40020064, 0x0004 Bytes, ..., Flags = 0x02000004) -- CPU_ReadMem(4 bytes @ 0x40020064) - Data: 20 04 00 20  returns 0x04 (0001ms, 13885ms total)
T5150 1570:441 JLINK_ReadMemEx(0x4002006C, 0x000C Bytes, ..., Flags = 0x02000004) -- CPU_ReadMem(12 bytes @ 0x4002006C) - Data: 00 00 00 00 00 00 00 00 00 00 00 00  returns 0x0C (0000ms, 13885ms total)
T5150 1570:441 JLINK_ReadMemEx(0x40020078, 0x0004 Bytes, ..., Flags = 0x02000004) -- CPU_ReadMem(4 bytes @ 0x40020078) - Data: 00 00 00 00  returns 0x04 (0000ms, 13885ms total)
T5150 1570:441 JLINK_ReadMemEx(0x40020080, 0x000C Bytes, ..., Flags = 0x02000004) -- CPU_ReadMem(12 bytes @ 0x40020080) - Data: 00 00 00 00 00 00 00 00 00 00 00 00  returns 0x0C (0001ms, 13886ms total)
T5150 1570:442 JLINK_ReadMemEx(0x4002008C, 0x0004 Bytes, ..., Flags = 0x02000004) -- CPU_ReadMem(4 bytes @ 0x4002008C) - Data: 00 00 00 00  returns 0x04 (0000ms, 13886ms total)
T5150 1570:443 JLINK_ReadMemEx(0x40004400, 0x0028 Bytes, ..., Flags = 0x02000004) -- CPU_ReadMem(40 bytes @ 0x40004400) - Data: 0D 01 00 00 00 00 00 00 41 00 00 00 88 13 00 00 ...  returns 0x28 (0000ms, 13886ms total)
T5150 1570:443 JLINK_ReadMemEx(0x40004428, 0x0004 Bytes, ..., Flags = 0x02000004) -- CPU_ReadMem(4 bytes @ 0x40004428) - Data: 00 00 00 00  returns 0x04 (0001ms, 13887ms total)
T4D40 1570:444 JLINK_IsHalted()  returns FALSE (0000ms, 13887ms total)
